<Qucs Dataset 0.0.15>
<indep x 10>
  +5.00000000000e+00
  +1.00000000000e+01
  +1.50000000000e+01
  +2.00000000000e+01
  +2.50000000000e+01
  +3.00000000000e+01
  +3.50000000000e+01
  +4.00000000000e+01
  +4.50000000000e+01
  +5.00000000000e+01
</indep>
<dep V1.I x>
  -1.40000000000e+00
  -1.40000000000e+00
  -1.40000000000e+00
  -1.40000000000e+00
  -1.40000000000e+00
  -1.40000000000e+00
  -1.40000000000e+00
  -1.40000000000e+00
  -1.40000000000e+00
  -1.40000000000e+00
</dep>
<dep izeja.V x>
  +7.00000000000e+00
  +7.00000000000e+00
  +7.00000000000e+00
  +7.00000000000e+00
  +7.00000000000e+00
  +7.00000000000e+00
  +7.00000000000e+00
  +7.00000000000e+00
  +7.00000000000e+00
  +7.00000000000e+00
</dep>
<dep _net0.V x>
  +1.54000000000e+01
  +1.54000000000e+01
  +1.54000000000e+01
  +1.54000000000e+01
  +1.54000000000e+01
  +1.54000000000e+01
  +1.54000000000e+01
  +1.54000000000e+01
  +1.54000000000e+01
  +1.54000000000e+01
</dep>
